<Qucs Dataset 0.0.19>
<indep time 101>
  +0.00000000000000000000e+000
  +4.00000000000000019169e-004
  +8.00000000000000038337e-004
  +1.20000000000000011172e-003
  +1.60000000000000007667e-003
  +2.00000000000000004163e-003
  +2.40000000000000022343e-003
  +2.79999999999999997155e-003
  +3.20000000000000015335e-003
  +3.59999999999999990147e-003
  +4.00000000000000008327e-003
  +4.40000000000000026507e-003
  +4.80000000000000044686e-003
  +5.19999999999999976130e-003
  +5.59999999999999994310e-003
  +6.00000000000000012490e-003
  +6.40000000000000030670e-003
  +6.80000000000000048850e-003
  +7.19999999999999980294e-003
  +7.59999999999999998473e-003
  +8.00000000000000016653e-003
  +8.39999999999999948097e-003
  +8.80000000000000053013e-003
  +9.19999999999999984457e-003
  +9.60000000000000089373e-003
  +1.00000000000000002082e-002
  +1.03999999999999995226e-002
  +1.08000000000000005718e-002
  +1.11999999999999998862e-002
  +1.16000000000000009354e-002
  +1.20000000000000002498e-002
  +1.23999999999999995642e-002
  +1.28000000000000006134e-002
  +1.31999999999999999278e-002
  +1.36000000000000009770e-002
  +1.40000000000000002914e-002
  +1.43999999999999996059e-002
  +1.48000000000000006550e-002
  +1.51999999999999999695e-002
  +1.56000000000000010186e-002
  +1.60000000000000003331e-002
  +1.64000000000000013822e-002
  +1.67999999999999989619e-002
  +1.72000000000000000111e-002
  +1.76000000000000010603e-002
  +1.80000000000000021094e-002
  +1.83999999999999996891e-002
  +1.88000000000000007383e-002
  +1.92000000000000017875e-002
  +1.95999999999999993672e-002
  +2.00000000000000004163e-002
  +2.04000000000000014655e-002
  +2.07999999999999990452e-002
  +2.12000000000000000944e-002
  +2.16000000000000011435e-002
  +2.19999999999999987232e-002
  +2.23999999999999997724e-002
  +2.28000000000000008216e-002
  +2.32000000000000018707e-002
  +2.35999999999999994504e-002
  +2.40000000000000004996e-002
  +2.44000000000000015488e-002
  +2.47999999999999991285e-002
  +2.52000000000000001776e-002
  +2.56000000000000012268e-002
  +2.60000000000000022760e-002
  +2.63999999999999998557e-002
  +2.68000000000000009048e-002
  +2.72000000000000019540e-002
  +2.75999999999999995337e-002
  +2.80000000000000005829e-002
  +2.84000000000000016320e-002
  +2.87999999999999992117e-002
  +2.92000000000000002609e-002
  +2.96000000000000013101e-002
  +2.99999999999999988898e-002
  +3.03999999999999999389e-002
  +3.08000000000000009881e-002
  +3.12000000000000020373e-002
  +3.16000000000000030864e-002
  +3.20000000000000006661e-002
  +3.23999999999999982458e-002
  +3.28000000000000027645e-002
  +3.32000000000000003442e-002
  +3.35999999999999979239e-002
  +3.40000000000000024425e-002
  +3.44000000000000000222e-002
  +3.47999999999999976019e-002
  +3.52000000000000021205e-002
  +3.55999999999999997002e-002
  +3.60000000000000042188e-002
  +3.64000000000000017986e-002
  +3.67999999999999993783e-002
  +3.72000000000000038969e-002
  +3.76000000000000014766e-002
  +3.79999999999999990563e-002
  +3.84000000000000035749e-002
  +3.88000000000000011546e-002
  +3.91999999999999987343e-002
  +3.96000000000000032530e-002
  +4.00000000000000008327e-002
</indep>
<dep V2.It time>
  -9.99999900000009961376e-003
  -9.93104874126470721363e-003
  -9.93104879569562358499e-003
  -9.93104876066422739833e-003
  -9.93104876213037578159e-003
  -9.93104876345627003709e-003
  -9.93104878573308758050e-003
  -9.93104878480071881497e-003
  -9.93104876913578418773e-003
  -9.93104876979141078241e-003
  -9.93104878080693607989e-003
  -9.93104877224133299196e-003
  -9.93104877890189571832e-003
  -9.93104877862312739045e-003
  -9.93104877393945206787e-003
  -9.93104877758145022926e-003
  -9.93104877474945517413e-003
  -9.93104877695159642126e-003
  -9.93104877685942882826e-003
  -9.93104877531089322296e-003
  -9.93104877651502550295e-003
  -9.93104877646462831653e-003
  -9.93104877561788897122e-003
  -9.93104877565332763711e-003
  -9.93104877624875065356e-003
  -9.93104877622382094249e-003
  -6.65684710741121146022e-003
  -4.46178585721196136610e-003
  -2.98966603074364394022e-003
  -2.00322585785765380773e-003
  -1.34151579971294944611e-003
  -8.98039502287542069914e-004
  -6.01772954569790709083e-004
  -4.03042739517442069348e-004
  -2.69941426653073110291e-004
  -1.80704591396249717198e-004
  -1.20967536389615662397e-004
  -8.10190735377815953420e-005
  -5.42359087322950047909e-005
  -3.63249778340843943185e-005
  -2.43167206992520594955e-005
  -1.62863379826418969837e-005
  -1.09024246003475150510e-005
  -7.30199495536076927387e-006
  -4.89057547142479621916e-006
  -3.27550602115067609576e-006
  -2.19269411372735599958e-006
  -1.46857620644169643484e-006
  -9.83591856662968761437e-007
  -6.58437524275968075638e-007
  -4.40994334841349017401e-007
  -9.93104876224293157960e-003
  -9.93104878673850555160e-003
  -9.93104877194051459399e-003
  -9.93104877913609206119e-003
  -9.93104877883491631019e-003
  -9.93104877377476609468e-003
  -9.93104877770950751625e-003
  -9.93104877464987684244e-003
  -9.93104877477793239471e-003
  -9.93104877692945267609e-003
  -9.93104877525644372249e-003
  -9.93104877532646583560e-003
  -9.93104877650291713309e-003
  -9.93104877558811591221e-003
  -9.93104877629946009021e-003
  -9.93104877626968703119e-003
  -9.93104877576947257800e-003
  -9.93104877615843747996e-003
  -9.93104877614215710013e-003
  -9.93104877586863978023e-003
  -9.93104877608132555200e-003
  -9.93104877607242468585e-003
  -9.93104877592286376664e-003
  -9.93104877603916136319e-003
  -9.93104877603429372912e-003
  -6.65684713697060372051e-003
  -4.46178559602126555833e-003
  -2.98966478998216643806e-003
  -2.00320325474568402407e-003
  -1.34198842344003749574e-003
  -8.99026558778214055639e-004
  -6.02092830851797011261e-004
  -4.03053878504472623372e-004
  -2.69812926933131079152e-004
  -1.80709585571559483604e-004
  -1.20970879597884114738e-004
  -8.09805061774877561059e-005
  -5.42374076628728828977e-005
  -3.63076861218232258628e-005
  -2.43173927461839408737e-005
  -1.62785852271767327590e-005
  -1.08972347392484190443e-005
  -7.29851900015532379523e-006
  -4.88578544678119881486e-006
  -3.27064976228896821324e-006
  -2.19054650167294104546e-006
  -1.46639889820932055667e-006
  -9.81638932252338140534e-007
  -6.57461326079911369442e-007
  -4.40118739343020952111e-007
</dep>
<dep V1.It time>
  +3.86809299006155028674e-021
  -9.16294182826005100713e-004
  -9.16294187570613127489e-004
  -9.16294184517013002994e-004
  -9.16294184644813550916e-004
  -9.16294184760388418301e-004
  -9.16294186702203291260e-004
  -9.16294186620931062730e-004
  -9.16294185255457464823e-004
  -9.16294185312606845537e-004
  -9.16294186272803069283e-004
  -9.16294185526160629568e-004
  -9.16294186106745363503e-004
  -9.16294186082445790732e-004
  -9.16294185674181439587e-004
  -9.16294185991645376670e-004
  -9.16294185744787178724e-004
  -9.16294185936742679698e-004
  -9.16294185928708633179e-004
  -9.16294185793726546907e-004
  -9.16294185898687833965e-004
  -9.16294185894294755182e-004
  -9.16294185820486391247e-004
  -9.16294185823575716918e-004
  -9.16294185875477233856e-004
  -9.16294185872956680645e-004
  +4.34315227100487948460e-016
  +6.53821400605173348282e-016
  +8.01033390183154868368e-016
  +8.99677409671272914832e-016
  +9.65848416449379264268e-016
  +1.01019604668978290301e-015
  +1.03982270174371560832e-015
  +1.05969572341916004242e-015
  +1.07300585481194306693e-015
  +1.08192953840572916464e-015
  +1.08790324395061718406e-015
  +1.09189809026478333412e-015
  +1.09457640676450354837e-015
  +1.09636749986703035654e-015
  +1.09756832558898101571e-015
  +1.09837136386628193211e-015
  +1.09890975520828253800e-015
  +1.09926979817529851039e-015
  +1.09951094012537585372e-015
  +1.09967244707153052707e-015
  +1.09978072826302784270e-015
  +1.09985314005426114744e-015
  +1.09990163848957698386e-015
  +1.09993415392304230863e-015
  +1.09995589824213724481e-015
  -9.16294184654624821636e-004
  -9.16294186789843147570e-004
  -9.16294185499938983186e-004
  -9.16294186127159589368e-004
  -9.16294186100906826384e-004
  -9.16294185659826060722e-004
  -9.16294186002807888557e-004
  -9.16294185736107381392e-004
  -9.16294185747269676438e-004
  -9.16294185934812257729e-004
  -9.16294185788980235056e-004
  -9.16294185795083859607e-004
  -9.16294185897632254729e-004
  -9.16294185817891353348e-004
  -9.16294185879897417693e-004
  -9.16294185877302271373e-004
  -9.16294185833699888384e-004
  -9.16294185867604733461e-004
  -9.16294185866185729658e-004
  -9.16294185842343798624e-004
  -9.16294185860883113673e-004
  -9.16294185860107258598e-004
  -9.16294185847070594836e-004
  -9.16294185857207776728e-004
  -9.16294185856783528418e-004
  +4.34315224144547053291e-016
  +6.53821426724244915825e-016
  +8.01033514259306330516e-016
  +8.99679669982508308978e-016
  +9.65801154076084751303e-016
  +1.01009734103971381262e-015
  +1.03979071411522933657e-015
  +1.05969460952044753775e-015
  +1.07301870478403716546e-015
  +1.08192903898819436757e-015
  +1.08790290962978782959e-015
  +1.09190194700084066709e-015
  +1.09457625687144471513e-015
  +1.09636922903826875248e-015
  +1.09756825838428736064e-015
  +1.09837213914183406221e-015
  +1.09891027419439600772e-015
  +1.09927014577082141763e-015
  +1.09951141912784379771e-015
  +1.09967293269741997892e-015
  +1.09978094302423467760e-015
  +1.09985335778508595067e-015
  +1.09990183378201932202e-015
  +1.09993425154286276840e-015
  +1.09995598580168774715e-015
</dep>
<dep VE.Vt time>
  +0.00000000000000000000e+000
  +1.00000000000000000000e+001
  +1.00000000000000000000e+001
  +1.00000000000000000000e+001
  +1.00000000000000000000e+001
  +1.00000000000000000000e+001
  +1.00000000000000000000e+001
  +1.00000000000000000000e+001
  +1.00000000000000000000e+001
  +1.00000000000000000000e+001
  +1.00000000000000000000e+001
  +1.00000000000000000000e+001
  +1.00000000000000000000e+001
  +1.00000000000000000000e+001
  +1.00000000000000000000e+001
  +1.00000000000000000000e+001
  +1.00000000000000000000e+001
  +1.00000000000000000000e+001
  +1.00000000000000000000e+001
  +1.00000000000000000000e+001
  +1.00000000000000000000e+001
  +1.00000000000000000000e+001
  +1.00000000000000000000e+001
  +1.00000000000000000000e+001
  +1.00000000000000000000e+001
  +9.99999999999651478788e+000
  +0.00000000000000000000e+000
  +0.00000000000000000000e+000
  +0.00000000000000000000e+000
  +0.00000000000000000000e+000
  +0.00000000000000000000e+000
  +0.00000000000000000000e+000
  +0.00000000000000000000e+000
  +0.00000000000000000000e+000
  +0.00000000000000000000e+000
  +0.00000000000000000000e+000
  +0.00000000000000000000e+000
  +0.00000000000000000000e+000
  +0.00000000000000000000e+000
  +0.00000000000000000000e+000
  +0.00000000000000000000e+000
  +0.00000000000000000000e+000
  +0.00000000000000000000e+000
  +0.00000000000000000000e+000
  +0.00000000000000000000e+000
  +0.00000000000000000000e+000
  +0.00000000000000000000e+000
  +0.00000000000000000000e+000
  +0.00000000000000000000e+000
  +0.00000000000000000000e+000
  +0.00000000000000000000e+000
  +1.00000000000000000000e+001
  +1.00000000000000000000e+001
  +1.00000000000000000000e+001
  +1.00000000000000000000e+001
  +1.00000000000000000000e+001
  +1.00000000000000000000e+001
  +1.00000000000000000000e+001
  +1.00000000000000000000e+001
  +1.00000000000000000000e+001
  +1.00000000000000000000e+001
  +1.00000000000000000000e+001
  +1.00000000000000000000e+001
  +1.00000000000000000000e+001
  +1.00000000000000000000e+001
  +1.00000000000000000000e+001
  +1.00000000000000000000e+001
  +1.00000000000000000000e+001
  +1.00000000000000000000e+001
  +1.00000000000000000000e+001
  +1.00000000000000000000e+001
  +1.00000000000000000000e+001
  +1.00000000000000000000e+001
  +1.00000000000000000000e+001
  +1.00000000000000000000e+001
  +1.00000000000000000000e+001
  +0.00000000000000000000e+000
  +0.00000000000000000000e+000
  +0.00000000000000000000e+000
  +0.00000000000000000000e+000
  +0.00000000000000000000e+000
  +0.00000000000000000000e+000
  +0.00000000000000000000e+000
  +0.00000000000000000000e+000
  +0.00000000000000000000e+000
  +0.00000000000000000000e+000
  +0.00000000000000000000e+000
  +0.00000000000000000000e+000
  +0.00000000000000000000e+000
  +0.00000000000000000000e+000
  +0.00000000000000000000e+000
  +0.00000000000000000000e+000
  +0.00000000000000000000e+000
  +0.00000000000000000000e+000
  +0.00000000000000000000e+000
  +0.00000000000000000000e+000
  +0.00000000000000000000e+000
  +0.00000000000000000000e+000
  +0.00000000000000000000e+000
  +0.00000000000000000000e+000
  +0.00000000000000000000e+000
</dep>
<dep VC1.Vt time>
  +9.99999900000009968152e-007
  +6.89512587352930916840e-002
  +6.89512043043764288885e-002
  +6.89512393357722130904e-002
  +6.89512378696243988241e-002
  +6.89512365437293661685e-002
  +6.89512142669129746153e-002
  +6.89512151992816707535e-002
  +6.89512308642164367667e-002
  +6.89512302085893147297e-002
  +6.89512191930642531768e-002
  +6.89512277586673272278e-002
  +6.89512210981049478153e-002
  +6.89512213768728732255e-002
  +6.89512260605482513176e-002
  +6.89512224185501454432e-002
  +6.89512252505458667073e-002
  +6.89512230484030513855e-002
  +6.89512231405705749987e-002
  +6.89512246891070407218e-002
  +6.89512234849743582688e-002
  +6.89512235353715308150e-002
  +6.89512243821118753218e-002
  +6.89512243466727653418e-002
  +6.89512237512489162272e-002
  +6.89512237761787105672e-002
  +3.34315289258878856060e+000
  +5.53821414278803914044e+000
  +7.01033396925635621244e+000
  +7.99677414214234616452e+000
  +8.65848420028705056950e+000
  +9.10196049771245796478e+000
  +9.39822704543020925883e+000
  +9.59695726048255792762e+000
  +9.73005857334692692007e+000
  +9.81929540860375027478e+000
  +9.87903246361038434031e+000
  +9.91898092646221840596e+000
  +9.94576409126770499824e+000
  +9.96367502216591560682e+000
  +9.97568327930074794097e+000
  +9.98371366201735810364e+000
  +9.98909757539965248441e+000
  +9.99269800504463923119e+000
  +9.99510942452857520379e+000
  +9.99672449397884932409e+000
  +9.99780730588627264410e+000
  +9.99853142379355830371e+000
  +9.99901640814333703133e+000
  +9.99934156247572403231e+000
  +9.99955900566515865080e+000
  +6.89512377570679346750e-002
  +6.89512132614945455478e-002
  +6.89512280594862109195e-002
  +6.89512208639088269857e-002
  +6.89512211650845086020e-002
  +6.89512262252339053203e-002
  +6.89512222904919147570e-002
  +6.89512253501231159314e-002
  +6.89512252220671473246e-002
  +6.89512230705476847348e-002
  +6.89512247435562358744e-002
  +6.89512246735351219673e-002
  +6.89512234970830056868e-002
  +6.89512244118847122953e-002
  +6.89512237005402844892e-002
  +6.89512237303126634957e-002
  +6.89512242305268113762e-002
  +6.89512238415632833233e-002
  +6.89512238578428027225e-002
  +6.89512241313603307935e-002
  +6.89512239186745451436e-002
  +6.89512239275761190660e-002
  +6.89512240771357198810e-002
  +6.89512239608390670176e-002
  +6.89512239657067010912e-002
  +3.34315286302939629337e+000
  +5.53821440397873487882e+000
  +7.01033521001783377358e+000
  +7.99679674525431583021e+000
  +8.65801157655996256324e+000
  +9.10097344122178597559e+000
  +9.39790716914820301042e+000
  +9.59694612149552739311e+000
  +9.73018707306686891911e+000
  +9.81929041442844052767e+000
  +9.87902912040211589328e+000
  +9.91901949382251224563e+000
  +9.94576259233712711705e+000
  +9.96369231387817677614e+000
  +9.97568260725381605880e+000
  +9.98372141477282326605e+000
  +9.98910276526075158188e+000
  +9.99270148099984467649e+000
  +9.99511421455321880103e+000
  +9.99672935023771103147e+000
  +9.99780945349832705915e+000
  +9.99853360110179067988e+000
  +9.99901836106774766222e+000
  +9.99934253867392008885e+000
  +9.99955988126065697941e+000
</dep>
<dep _net0.Vt time>
  +3.86809299006155002072e-017
  +8.37058171739950118706e-001
  +8.37058124293869720844e-001
  +8.37058154829870226799e-001
  +8.37058153551865635755e-001
  +8.37058152396115806582e-001
  +8.37058132977966717903e-001
  +8.37058133790689384846e-001
  +8.37058147445425282385e-001
  +8.37058146873931208098e-001
  +8.37058137271970759130e-001
  +8.37058144738395015771e-001
  +8.37058138932547768363e-001
  +8.37058139175542836874e-001
  +8.37058143258186726499e-001
  +8.37058140083547175259e-001
  +8.37058142552127626423e-001
  +8.37058140632574332329e-001
  +8.37058140712914400261e-001
  +8.37058142062735321964e-001
  +8.37058141013122702923e-001
  +8.37058141057052562672e-001
  +8.37058141795135379759e-001
  +8.37058141764243868188e-001
  +8.37058141245227593785e-001
  +8.37058141266948441128e-001
  +4.34315227100487943017e-012
  +6.53821400605173308366e-012
  +8.01033390183154800526e-012
  +8.99677409671272950489e-012
  +9.65848416449379349465e-012
  +1.01019604668978282759e-011
  +1.03982270174371564335e-011
  +1.05969572341915999951e-011
  +1.07300585481194303158e-011
  +1.08192953840572907660e-011
  +1.08790324395061712127e-011
  +1.09189809026478335179e-011
  +1.09457640676450362725e-011
  +1.09636749986703042691e-011
  +1.09756832558898101003e-011
  +1.09837136386628195830e-011
  +1.09890975520828261373e-011
  +1.09926979817529844255e-011
  +1.09951094012537586697e-011
  +1.09967244707153039644e-011
  +1.09978072826302766788e-011
  +1.09985314005426122948e-011
  +1.09990163848957693180e-011
  +1.09993415392304238152e-011
  +1.09995589824213714068e-011
  +8.37058153453752784579e-001
  +8.37058132101568319605e-001
  +8.37058145000611264486e-001
  +8.37058138728404732554e-001
  +8.37058138990932176782e-001
  +8.37058143401739118694e-001
  +8.37058139971921910671e-001
  +8.37058142638926638845e-001
  +8.37058142527303594704e-001
  +8.37058140651877335969e-001
  +8.37058142110197356267e-001
  +8.37058142049161735265e-001
  +8.37058141023677371173e-001
  +8.37058141821087620116e-001
  +8.37058141201026173484e-001
  +8.37058141226978080773e-001
  +8.37058141663002408528e-001
  +8.37058141323952398238e-001
  +8.37058141338142824850e-001
  +8.37058141576561443031e-001
  +8.37058141391168408774e-001
  +8.37058141398927757493e-001
  +8.37058141529295141048e-001
  +8.37058141427922230982e-001
  +8.37058141432165170315e-001
  +4.34315224144547038066e-012
  +6.53821426724244890109e-012
  +8.01033514259306250209e-012
  +8.99679669982508392282e-012
  +9.65801154076084618144e-012
  +1.01009734103971375236e-011
  +1.03979071411522916270e-011
  +1.05969460952044759013e-011
  +1.07301870478403714274e-011
  +1.08192903898819431709e-011
  +1.08790290962978778699e-011
  +1.09190194700084041970e-011
  +1.09457625687144474605e-011
  +1.09636922903826866854e-011
  +1.09756825838428743858e-011
  +1.09837213914183387762e-011
  +1.09891027419439600488e-011
  +1.09927014577082144413e-011
  +1.09951141912784366203e-011
  +1.09967293269741979496e-011
  +1.09978094302423464320e-011
  +1.09985335778508602419e-011
  +1.09990183378201931823e-011
  +1.09993425154286269993e-011
  +1.09995598580168765217e-011
</dep>
<dep _net1.Vt time>
  +1.00000000000000000000e+001
  +1.00000000000000000000e+001
  +1.00000000000000000000e+001
  +1.00000000000000000000e+001
  +1.00000000000000000000e+001
  +1.00000000000000000000e+001
  +1.00000000000000000000e+001
  +1.00000000000000000000e+001
  +1.00000000000000000000e+001
  +1.00000000000000000000e+001
  +1.00000000000000000000e+001
  +1.00000000000000000000e+001
  +1.00000000000000000000e+001
  +1.00000000000000000000e+001
  +1.00000000000000000000e+001
  +1.00000000000000000000e+001
  +1.00000000000000000000e+001
  +1.00000000000000000000e+001
  +1.00000000000000000000e+001
  +1.00000000000000000000e+001
  +1.00000000000000000000e+001
  +1.00000000000000000000e+001
  +1.00000000000000000000e+001
  +1.00000000000000000000e+001
  +1.00000000000000000000e+001
  +1.00000000000000000000e+001
  +1.00000000000000000000e+001
  +1.00000000000000000000e+001
  +1.00000000000000000000e+001
  +1.00000000000000000000e+001
  +1.00000000000000000000e+001
  +1.00000000000000000000e+001
