<Qucs Dataset 0.0.18>
<indep time 11>
  +0.00000000000e+000
  +2.00000000000e-001
  +4.00000000000e-001
  +6.00000000000e-001
  +8.00000000000e-001
  +1.00000000000e+000
  +1.20000000000e+000
  +1.40000000000e+000
  +1.60000000000e+000
  +1.80000000000e+000
  +2.00000000000e+000
</indep>
<dep Vcc1.Vt time>
  +0.00000000000e+000
  -3.71559712893e-008
  +9.26471125477e-008
  +9.26471125477e-008
  +9.26471125477e-008
  +9.26471125477e-008
  +9.26471125477e-008
  +9.26471125477e-008
  +9.26471125477e-008
  +9.26471125477e-008
  +9.26471125477e-008
</dep>
<dep Vcc2.Vt time>
  +0.00000000000e+000
  +0.00000000000e+000
  +0.00000000000e+000
  +0.00000000000e+000
  +0.00000000000e+000
  +0.00000000000e+000
  +0.00000000000e+000
  +0.00000000000e+000
  +0.00000000000e+000
  +0.00000000000e+000
  +0.00000000000e+000
</dep>
<dep Vcc.It time>
  -1.02880658330e-012
  -9.99999943614e-004
  -9.99999943614e-004
  -9.99999943614e-004
  -9.99999943614e-004
  -9.99999943614e-004
  -9.99999943614e-004
  -9.99999943614e-004
  -9.99999943614e-004
  -9.99999943614e-004
  -9.99999943614e-004
</dep>
<dep Ic1.It time>
  +1.02880658330e-012
  +9.99999943614e-004
  +9.99999943614e-004
  +9.99999943614e-004
  +9.99999943614e-004
  +9.99999943614e-004
  +9.99999943614e-004
  +9.99999943614e-004
  +9.99999943614e-004
  +9.99999943614e-004
  +9.99999943614e-004
</dep>
<dep _net3.Vt time>
  +0.00000000000e+000
  +3.71559712893e-008
  -9.26471125477e-008
  -9.26471125477e-008
  -9.26471125477e-008
  -9.26471125477e-008
  -9.26471125477e-008
  -9.26471125477e-008
  -9.26471125477e-008
  -9.26471125477e-008
  -9.26471125477e-008
</dep>
<dep _net1.Vt time>
  +0.00000000000e+000
  +3.71559712893e-008
  -9.26471125477e-008
  -9.26471125477e-008
  -9.26471125477e-008
  -9.26471125477e-008
  -9.26471125477e-008
  -9.26471125477e-008
  -9.26471125477e-008
  -9.26471125477e-008
  -9.26471125477e-008
</dep>
<dep _net4.Vt time>
  +0.00000000000e+000
  +0.00000000000e+000
  +0.00000000000e+000
  +0.00000000000e+000
  +0.00000000000e+000
  +0.00000000000e+000
  +0.00000000000e+000
  +0.00000000000e+000
  +0.00000000000e+000
  +0.00000000000e+000
  +0.00000000000e+000
</dep>
<dep _net2.Vt time>
  +1.02880658330e-009
  +9.99999980770e-001
  +9.99999850967e-001
  +9.99999850967e-001
  +9.99999850967e-001
  +9.99999850967e-001
  +9.99999850967e-001
  +9.99999850967e-001
  +9.99999850967e-001
  +9.99999850967e-001
  +9.99999850967e-001
</dep>
<dep _net0.Vt time>
  +1.00000000000e+000
  +1.00000003716e+000
  +9.99999907353e-001
  +9.99999907353e-001
  +9.99999907353e-001
  +9.99999907353e-001
  +9.99999907353e-001
  +9.99999907353e-001
  +9.99999907353e-001
  +9.99999907353e-001
  +9.99999907353e-001
</dep>
